Title: * spicenetlist
Date: Wed Nov 25 21:43:45  2020
Plotname: Transient Analysis
Flags: real
No. Variables: 10
No. Points: 333
Variables:
	0	time	time
	1	v(dig_a)	voltage
	2	v(dig_b)	voltage
	3	v(dig_sa)	voltage
	4	v(dig_sb)	voltage
	5	v(dig_sc)	voltage
	6	v(dig_sd)	voltage
	7	v(dig_se)	voltage
	8	v(dig_sf)	voltage
	9	v(dig_sg)	voltage
Values:
 0	0.000000000000000e+000
	3.000000000000000e-001
	3.000000000000000e-001
	2.500000000000000e+000
	2.500000000000000e+000
	2.500000000000000e+000
	2.500000000000000e+000
	2.500000000000000e+000
	2.500000000000000e+000
	3.000000000000000e-001

 1	2.000000000000000e-004
	3.000000000000000e-001
	3.000000000000000e-001
	2.500000000000000e+000
	2.500000000000000e+000
	2.500000000000000e+000
	2.500000000000000e+000
	2.500000000000000e+000
	2.500000000000000e+000
	3.000000000000000e-001

 2	4.000000000000001e-004
	3.000000000000000e-001
	3.000000000000000e-001
	2.500000000000000e+000
	2.500000000000000e+000
	2.500000000000000e+000
	2.500000000000000e+000
	2.500000000000000e+000
	2.500000000000000e+000
	3.000000000000000e-001

 3	8.000000000000002e-004
	3.000000000000000e-001
	3.000000000000000e-001
	2.500000000000000e+000
	2.500000000000000e+000
	2.500000000000000e+000
	2.500000000000000e+000
	2.500000000000000e+000
	2.500000000000000e+000
	3.000000000000000e-001

 4	1.600000000000000e-003
	3.000000000000000e-001
	3.000000000000000e-001
	2.500000000000000e+000
	2.500000000000000e+000
	2.500000000000000e+000
	2.500000000000000e+000
	2.500000000000000e+000
	2.500000000000000e+000
	3.000000000000000e-001

 5	3.200000000000001e-003
	3.000000000000000e-001
	3.000000000000000e-001
	2.500000000000000e+000
	2.500000000000000e+000
	2.500000000000000e+000
	2.500000000000000e+000
	2.500000000000000e+000
	2.500000000000000e+000
	3.000000000000000e-001

 6	6.400000000000001e-003
	3.000000000000000e-001
	3.000000000000000e-001
	2.500000000000000e+000
	2.500000000000000e+000
	2.500000000000000e+000
	2.500000000000000e+000
	2.500000000000000e+000
	2.500000000000000e+000
	3.000000000000000e-001

 7	1.280000000000000e-002
	3.000000000000000e-001
	3.000000000000000e-001
	2.500000000000000e+000
	2.500000000000000e+000
	2.500000000000000e+000
	2.500000000000000e+000
	2.500000000000000e+000
	2.500000000000000e+000
	3.000000000000000e-001

 8	2.560000000000001e-002
	3.000000000000000e-001
	3.000000000000000e-001
	2.500000000000000e+000
	2.500000000000000e+000
	2.500000000000000e+000
	2.500000000000000e+000
	2.500000000000000e+000
	2.500000000000000e+000
	3.000000000000000e-001

 9	4.560000000000001e-002
	3.000000000000000e-001
	3.000000000000000e-001
	2.500000000000000e+000
	2.500000000000000e+000
	2.500000000000000e+000
	2.500000000000000e+000
	2.500000000000000e+000
	2.500000000000000e+000
	3.000000000000000e-001

 10	6.560000000000002e-002
	3.000000000000000e-001
	3.000000000000000e-001
	2.500000000000000e+000
	2.500000000000000e+000
	2.500000000000000e+000
	2.500000000000000e+000
	2.500000000000000e+000
	2.500000000000000e+000
	3.000000000000000e-001

 11	8.560000000000002e-002
	3.000000000000000e-001
	3.000000000000000e-001
	2.500000000000000e+000
	2.500000000000000e+000
	2.500000000000000e+000
	2.500000000000000e+000
	2.500000000000000e+000
	2.500000000000000e+000
	3.000000000000000e-001

 12	1.056000000000000e-001
	3.000000000000000e-001
	3.000000000000000e-001
	2.500000000000000e+000
	2.500000000000000e+000
	2.500000000000000e+000
	2.500000000000000e+000
	2.500000000000000e+000
	2.500000000000000e+000
	3.000000000000000e-001

 13	1.256000000000000e-001
	3.000000000000000e-001
	3.000000000000000e-001
	2.500000000000000e+000
	2.500000000000000e+000
	2.500000000000000e+000
	2.500000000000000e+000
	2.500000000000000e+000
	2.500000000000000e+000
	3.000000000000000e-001

 14	1.456000000000001e-001
	3.000000000000000e-001
	3.000000000000000e-001
	2.500000000000000e+000
	2.500000000000000e+000
	2.500000000000000e+000
	2.500000000000000e+000
	2.500000000000000e+000
	2.500000000000000e+000
	3.000000000000000e-001

 15	1.656000000000001e-001
	3.000000000000000e-001
	3.000000000000000e-001
	2.500000000000000e+000
	2.500000000000000e+000
	2.500000000000000e+000
	2.500000000000000e+000
	2.500000000000000e+000
	2.500000000000000e+000
	3.000000000000000e-001

 16	1.856000000000001e-001
	3.000000000000000e-001
	3.000000000000000e-001
	2.500000000000000e+000
	2.500000000000000e+000
	2.500000000000000e+000
	2.500000000000000e+000
	2.500000000000000e+000
	2.500000000000000e+000
	3.000000000000000e-001

 17	2.056000000000001e-001
	3.000000000000000e-001
	3.000000000000000e-001
	2.500000000000000e+000
	2.500000000000000e+000
	2.500000000000000e+000
	2.500000000000000e+000
	2.500000000000000e+000
	2.500000000000000e+000
	3.000000000000000e-001

 18	2.256000000000001e-001
	3.000000000000000e-001
	3.000000000000000e-001
	2.500000000000000e+000
	2.500000000000000e+000
	2.500000000000000e+000
	2.500000000000000e+000
	2.500000000000000e+000
	2.500000000000000e+000
	3.000000000000000e-001

 19	2.456000000000002e-001
	3.000000000000000e-001
	3.000000000000000e-001
	2.500000000000000e+000
	2.500000000000000e+000
	2.500000000000000e+000
	2.500000000000000e+000
	2.500000000000000e+000
	2.500000000000000e+000
	3.000000000000000e-001

 20	2.656000000000002e-001
	3.000000000000000e-001
	3.000000000000000e-001
	2.500000000000000e+000
	2.500000000000000e+000
	2.500000000000000e+000
	2.500000000000000e+000
	2.500000000000000e+000
	2.500000000000000e+000
	3.000000000000000e-001

 21	2.856000000000002e-001
	3.000000000000000e-001
	3.000000000000000e-001
	2.500000000000000e+000
	2.500000000000000e+000
	2.500000000000000e+000
	2.500000000000000e+000
	2.500000000000000e+000
	2.500000000000000e+000
	3.000000000000000e-001

 22	3.056000000000002e-001
	3.000000000000000e-001
	3.000000000000000e-001
	2.500000000000000e+000
	2.500000000000000e+000
	2.500000000000000e+000
	2.500000000000000e+000
	2.500000000000000e+000
	2.500000000000000e+000
	3.000000000000000e-001

 23	3.256000000000002e-001
	3.000000000000000e-001
	3.000000000000000e-001
	2.500000000000000e+000
	2.500000000000000e+000
	2.500000000000000e+000
	2.500000000000000e+000
	2.500000000000000e+000
	2.500000000000000e+000
	3.000000000000000e-001

 24	3.456000000000002e-001
	3.000000000000000e-001
	3.000000000000000e-001
	2.500000000000000e+000
	2.500000000000000e+000
	2.500000000000000e+000
	2.500000000000000e+000
	2.500000000000000e+000
	2.500000000000000e+000
	3.000000000000000e-001

 25	3.656000000000003e-001
	3.000000000000000e-001
	3.000000000000000e-001
	2.500000000000000e+000
	2.500000000000000e+000
	2.500000000000000e+000
	2.500000000000000e+000
	2.500000000000000e+000
	2.500000000000000e+000
	3.000000000000000e-001

 26	3.856000000000003e-001
	3.000000000000000e-001
	3.000000000000000e-001
	2.500000000000000e+000
	2.500000000000000e+000
	2.500000000000000e+000
	2.500000000000000e+000
	2.500000000000000e+000
	2.500000000000000e+000
	3.000000000000000e-001

 27	4.056000000000003e-001
	3.000000000000000e-001
	3.000000000000000e-001
	2.500000000000000e+000
	2.500000000000000e+000
	2.500000000000000e+000
	2.500000000000000e+000
	2.500000000000000e+000
	2.500000000000000e+000
	3.000000000000000e-001

 28	4.256000000000003e-001
	3.000000000000000e-001
	3.000000000000000e-001
	2.500000000000000e+000
	2.500000000000000e+000
	2.500000000000000e+000
	2.500000000000000e+000
	2.500000000000000e+000
	2.500000000000000e+000
	3.000000000000000e-001

 29	4.456000000000003e-001
	3.000000000000000e-001
	3.000000000000000e-001
	2.500000000000000e+000
	2.500000000000000e+000
	2.500000000000000e+000
	2.500000000000000e+000
	2.500000000000000e+000
	2.500000000000000e+000
	3.000000000000000e-001

 30	4.656000000000004e-001
	3.000000000000000e-001
	3.000000000000000e-001
	2.500000000000000e+000
	2.500000000000000e+000
	2.500000000000000e+000
	2.500000000000000e+000
	2.500000000000000e+000
	2.500000000000000e+000
	3.000000000000000e-001

 31	4.856000000000004e-001
	3.000000000000000e-001
	3.000000000000000e-001
	2.500000000000000e+000
	2.500000000000000e+000
	2.500000000000000e+000
	2.500000000000000e+000
	2.500000000000000e+000
	2.500000000000000e+000
	3.000000000000000e-001

 32	5.056000000000004e-001
	3.000000000000000e-001
	3.000000000000000e-001
	2.500000000000000e+000
	2.500000000000000e+000
	2.500000000000000e+000
	2.500000000000000e+000
	2.500000000000000e+000
	2.500000000000000e+000
	3.000000000000000e-001

 33	5.256000000000004e-001
	3.000000000000000e-001
	3.000000000000000e-001
	2.500000000000000e+000
	2.500000000000000e+000
	2.500000000000000e+000
	2.500000000000000e+000
	2.500000000000000e+000
	2.500000000000000e+000
	3.000000000000000e-001

 34	5.456000000000004e-001
	3.000000000000000e-001
	3.000000000000000e-001
	2.500000000000000e+000
	2.500000000000000e+000
	2.500000000000000e+000
	2.500000000000000e+000
	2.500000000000000e+000
	2.500000000000000e+000
	3.000000000000000e-001

 35	5.656000000000004e-001
	3.000000000000000e-001
	3.000000000000000e-001
	2.500000000000000e+000
	2.500000000000000e+000
	2.500000000000000e+000
	2.500000000000000e+000
	2.500000000000000e+000
	2.500000000000000e+000
	3.000000000000000e-001

 36	5.856000000000005e-001
	3.000000000000000e-001
	3.000000000000000e-001
	2.500000000000000e+000
	2.500000000000000e+000
	2.500000000000000e+000
	2.500000000000000e+000
	2.500000000000000e+000
	2.500000000000000e+000
	3.000000000000000e-001

 37	6.056000000000005e-001
	3.000000000000000e-001
	3.000000000000000e-001
	2.500000000000000e+000
	2.500000000000000e+000
	2.500000000000000e+000
	2.500000000000000e+000
	2.500000000000000e+000
	2.500000000000000e+000
	3.000000000000000e-001

 38	6.256000000000005e-001
	3.000000000000000e-001
	3.000000000000000e-001
	2.500000000000000e+000
	2.500000000000000e+000
	2.500000000000000e+000
	2.500000000000000e+000
	2.500000000000000e+000
	2.500000000000000e+000
	3.000000000000000e-001

 39	6.456000000000005e-001
	3.000000000000000e-001
	3.000000000000000e-001
	2.500000000000000e+000
	2.500000000000000e+000
	2.500000000000000e+000
	2.500000000000000e+000
	2.500000000000000e+000
	2.500000000000000e+000
	3.000000000000000e-001

 40	6.656000000000005e-001
	3.000000000000000e-001
	3.000000000000000e-001
	2.500000000000000e+000
	2.500000000000000e+000
	2.500000000000000e+000
	2.500000000000000e+000
	2.500000000000000e+000
	2.500000000000000e+000
	3.000000000000000e-001

 41	6.856000000000005e-001
	3.000000000000000e-001
	3.000000000000000e-001
	2.500000000000000e+000
	2.500000000000000e+000
	2.500000000000000e+000
	2.500000000000000e+000
	2.500000000000000e+000
	2.500000000000000e+000
	3.000000000000000e-001

 42	7.056000000000006e-001
	3.000000000000000e-001
	3.000000000000000e-001
	2.500000000000000e+000
	2.500000000000000e+000
	2.500000000000000e+000
	2.500000000000000e+000
	2.500000000000000e+000
	2.500000000000000e+000
	3.000000000000000e-001

 43	7.256000000000006e-001
	3.000000000000000e-001
	3.000000000000000e-001
	2.500000000000000e+000
	2.500000000000000e+000
	2.500000000000000e+000
	2.500000000000000e+000
	2.500000000000000e+000
	2.500000000000000e+000
	3.000000000000000e-001

 44	7.456000000000006e-001
	3.000000000000000e-001
	3.000000000000000e-001
	2.500000000000000e+000
	2.500000000000000e+000
	2.500000000000000e+000
	2.500000000000000e+000
	2.500000000000000e+000
	2.500000000000000e+000
	3.000000000000000e-001

 45	7.656000000000006e-001
	3.000000000000000e-001
	3.000000000000000e-001
	2.500000000000000e+000
	2.500000000000000e+000
	2.500000000000000e+000
	2.500000000000000e+000
	2.500000000000000e+000
	2.500000000000000e+000
	3.000000000000000e-001

 46	7.856000000000006e-001
	3.000000000000000e-001
	3.000000000000000e-001
	2.500000000000000e+000
	2.500000000000000e+000
	2.500000000000000e+000
	2.500000000000000e+000
	2.500000000000000e+000
	2.500000000000000e+000
	3.000000000000000e-001

 47	8.056000000000007e-001
	3.000000000000000e-001
	3.000000000000000e-001
	2.500000000000000e+000
	2.500000000000000e+000
	2.500000000000000e+000
	2.500000000000000e+000
	2.500000000000000e+000
	2.500000000000000e+000
	3.000000000000000e-001

 48	8.256000000000007e-001
	3.000000000000000e-001
	3.000000000000000e-001
	2.500000000000000e+000
	2.500000000000000e+000
	2.500000000000000e+000
	2.500000000000000e+000
	2.500000000000000e+000
	2.500000000000000e+000
	3.000000000000000e-001

 49	8.456000000000007e-001
	3.000000000000000e-001
	3.000000000000000e-001
	2.500000000000000e+000
	2.500000000000000e+000
	2.500000000000000e+000
	2.500000000000000e+000
	2.500000000000000e+000
	2.500000000000000e+000
	3.000000000000000e-001

 50	8.656000000000007e-001
	3.000000000000000e-001
	3.000000000000000e-001
	2.500000000000000e+000
	2.500000000000000e+000
	2.500000000000000e+000
	2.500000000000000e+000
	2.500000000000000e+000
	2.500000000000000e+000
	3.000000000000000e-001

 51	8.856000000000007e-001
	3.000000000000000e-001
	3.000000000000000e-001
	2.500000000000000e+000
	2.500000000000000e+000
	2.500000000000000e+000
	2.500000000000000e+000
	2.500000000000000e+000
	2.500000000000000e+000
	3.000000000000000e-001

 52	9.056000000000007e-001
	3.000000000000000e-001
	3.000000000000000e-001
	2.500000000000000e+000
	2.500000000000000e+000
	2.500000000000000e+000
	2.500000000000000e+000
	2.500000000000000e+000
	2.500000000000000e+000
	3.000000000000000e-001

 53	9.256000000000008e-001
	3.000000000000000e-001
	3.000000000000000e-001
	2.500000000000000e+000
	2.500000000000000e+000
	2.500000000000000e+000
	2.500000000000000e+000
	2.500000000000000e+000
	2.500000000000000e+000
	3.000000000000000e-001

 54	9.456000000000008e-001
	3.000000000000000e-001
	3.000000000000000e-001
	2.500000000000000e+000
	2.500000000000000e+000
	2.500000000000000e+000
	2.500000000000000e+000
	2.500000000000000e+000
	2.500000000000000e+000
	3.000000000000000e-001

 55	9.656000000000008e-001
	3.000000000000000e-001
	3.000000000000000e-001
	2.500000000000000e+000
	2.500000000000000e+000
	2.500000000000000e+000
	2.500000000000000e+000
	2.500000000000000e+000
	2.500000000000000e+000
	3.000000000000000e-001

 56	9.856000000000008e-001
	3.000000000000000e-001
	3.000000000000000e-001
	2.500000000000000e+000
	2.500000000000000e+000
	2.500000000000000e+000
	2.500000000000000e+000
	2.500000000000000e+000
	2.500000000000000e+000
	3.000000000000000e-001

 57	1.000000000000000e+000
	3.000000000000000e-001
	3.000000000000000e-001
	2.500000000000000e+000
	2.500000000000000e+000
	2.500000000000000e+000
	2.500000000000000e+000
	2.500000000000000e+000
	2.500000000000000e+000
	3.000000000000000e-001

 58	1.000000000100000e+000
	3.000000000000000e-001
	5.200000182028817e-001
	2.500000000000000e+000
	2.500000000000000e+000
	2.500000000000000e+000
	2.500000000000000e+000
	2.500000000000000e+000
	2.500000000000000e+000
	3.000000000000000e-001

 59	1.000000000300000e+000
	3.000000000000000e-001
	9.600000546086449e-001
	2.500000000000000e+000
	2.500000000000000e+000
	2.500000000000000e+000
	2.500000000000000e+000
	2.500000000000000e+000
	2.500000000000000e+000
	3.000000000000000e-001

 60	1.000000000700000e+000
	3.000000000000000e-001
	1.840000127420171e+000
	2.500000000000000e+000
	2.500000000000000e+000
	2.500000000000000e+000
	2.500000000000000e+000
	2.500000000000000e+000
	2.500000000000000e+000
	3.000000000000000e-001

 61	1.000000001000000e+000
	3.000000000000000e-001
	2.500000000000000e+000
	2.500000000000000e+000
	2.500000000000000e+000
	2.500000000000000e+000
	2.500000000000000e+000
	2.500000000000000e+000
	2.500000000000000e+000
	3.000000000000000e-001

 62	1.000000001080000e+000
	3.000000000000000e-001
	2.500000000000000e+000
	2.500000000000000e+000
	2.500000000000000e+000
	2.500000000000000e+000
	2.500000000000000e+000
	2.500000000000000e+000
	2.500000000000000e+000
	3.000000000000000e-001

 63	1.000000001240000e+000
	3.000000000000000e-001
	2.500000000000000e+000
	2.500000000000000e+000
	2.500000000000000e+000
	2.500000000000000e+000
	2.500000000000000e+000
	2.500000000000000e+000
	2.500000000000000e+000
	3.000000000000000e-001

 64	1.000000001560000e+000
	3.000000000000000e-001
	2.500000000000000e+000
	2.500000000000000e+000
	2.500000000000000e+000
	2.500000000000000e+000
	2.500000000000000e+000
	2.500000000000000e+000
	2.500000000000000e+000
	3.000000000000000e-001

 65	1.000000002000000e+000
	3.000000000000000e-001
	2.500000000000000e+000
	2.500000000000000e+000
	2.500000000000000e+000
	2.500000000000000e+000
	2.500000000000000e+000
	2.500000000000000e+000
	2.500000000000000e+000
	3.000000000000000e-001

 66	1.000000002064000e+000
	3.000000000000000e-001
	2.500000000000000e+000
	2.359200183749408e+000
	2.500000000000000e+000
	2.500000000000000e+000
	2.500000000000000e+000
	2.359200183749408e+000
	2.359200183749408e+000
	3.000000000000000e-001

 67	1.000000002192000e+000
	3.000000000000000e-001
	2.500000000000000e+000
	2.077600062750094e+000
	2.500000000000000e+000
	2.500000000000000e+000
	2.500000000000000e+000
	2.077600062750094e+000
	2.077600062750094e+000
	3.000000000000000e-001

 68	1.000000002448000e+000
	3.000000000000000e-001
	2.500000000000000e+000
	1.514399820751464e+000
	2.500000000000000e+000
	2.500000000000000e+000
	2.500000000000000e+000
	1.514399820751464e+000
	1.514399820751464e+000
	3.000000000000000e-001

 69	1.000000002960000e+000
	3.000000000000000e-001
	2.500000000000000e+000
	3.879998252523365e-001
	2.500000000000000e+000
	2.500000000000000e+000
	2.500000000000000e+000
	3.879998252523365e-001
	3.879998252523365e-001
	3.000000000000000e-001

 70	1.000000003000000e+000
	3.000000000000000e-001
	2.500000000000000e+000
	3.000000000000000e-001
	2.500000000000000e+000
	2.500000000000000e+000
	2.500000000000000e+000
	3.000000000000000e-001
	3.000000000000000e-001
	3.000000000000000e-001

 71	1.000000003080000e+000
	3.000000000000000e-001
	2.500000000000000e+000
	3.000000000000000e-001
	2.500000000000000e+000
	2.500000000000000e+000
	2.323999985437695e+000
	3.000000000000000e-001
	3.000000000000000e-001
	3.000000000000000e-001

 72	1.000000003240000e+000
	3.000000000000000e-001
	2.500000000000000e+000
	3.000000000000000e-001
	2.500000000000000e+000
	2.500000000000000e+000
	1.971999956313084e+000
	3.000000000000000e-001
	3.000000000000000e-001
	3.000000000000000e-001

 73	1.000000003560000e+000
	3.000000000000000e-001
	2.500000000000000e+000
	3.000000000000000e-001
	2.500000000000000e+000
	2.500000000000000e+000
	1.267999898063863e+000
	3.000000000000000e-001
	3.000000000000000e-001
	3.000000000000000e-001

 74	1.000000004000000e+000
	3.000000000000000e-001
	2.500000000000000e+000
	3.000000000000000e-001
	2.500000000000000e+000
	2.500000000000000e+000
	3.000000000000000e-001
	3.000000000000000e-001
	3.000000000000000e-001
	3.000000000000000e-001

 75	1.000000004064000e+000
	3.000000000000000e-001
	2.500000000000000e+000
	3.000000000000000e-001
	2.500000000000000e+000
	2.500000000000000e+000
	3.000000000000000e-001
	3.000000000000000e-001
	3.000000000000000e-001
	3.000000000000000e-001

 76	1.000000004192000e+000
	3.000000000000000e-001
	2.500000000000000e+000
	3.000000000000000e-001
	2.500000000000000e+000
	2.500000000000000e+000
	3.000000000000000e-001
	3.000000000000000e-001
	3.000000000000000e-001
	3.000000000000000e-001

 77	1.000000004448000e+000
	3.000000000000000e-001
	2.500000000000000e+000
	3.000000000000000e-001
	2.500000000000000e+000
	2.500000000000000e+000
	3.000000000000000e-001
	3.000000000000000e-001
	3.000000000000000e-001
	3.000000000000000e-001

 78	1.000000004960000e+000
	3.000000000000000e-001
	2.500000000000000e+000
	3.000000000000000e-001
	2.500000000000000e+000
	2.500000000000000e+000
	3.000000000000000e-001
	3.000000000000000e-001
	3.000000000000000e-001
	3.000000000000000e-001

 79	1.000000005984000e+000
	3.000000000000000e-001
	2.500000000000000e+000
	3.000000000000000e-001
	2.500000000000000e+000
	2.500000000000000e+000
	3.000000000000000e-001
	3.000000000000000e-001
	3.000000000000000e-001
	3.000000000000000e-001

 80	1.000000008032001e+000
	3.000000000000000e-001
	2.500000000000000e+000
	3.000000000000000e-001
	2.500000000000000e+000
